
T1118 000:611 SEGGER J-Link V4.96d Log File (0001ms, 0261ms total)
T1118 000:611 DLL Compiled: Jan 29 2015 11:45:37 (0001ms, 0261ms total)
T1118 000:611 Logging started @ 2017-09-21 21:31 (0001ms, 0261ms total)
T1118 000:612 JLINK_SetWarnOutHandler(...) (0000ms, 0261ms total)
T1118 000:612 JLINK_OpenEx(...)
Firmware: J-Link ARM-OB STM32 compiled Aug 22 2012 19:52:04
Hardware: V7.00
S/N: 20160721
Feature(s): RDI,FlashDL,FlashBP,JFlash,GDBFull  returns O.K. (0267ms, 0528ms total)
T1118 000:879 JLINK_SetErrorOutHandler(...) (0000ms, 0528ms total)
T1118 000:879 JLINK_ExecCommand("ProjectFile = "D:\build\BCar\BanCar\MDK-ARM\JLinkSettings.ini"", ...)  returns 0x00 (0003ms, 0531ms total)
T1118 000:882 JLINK_ExecCommand("Device = STM32F103C8", ...)Device "STM32F103C8" selected.  returns 0x00 (0001ms, 0532ms total)
T1118 000:883 JLINK_ExecCommand("DisableConnectionTimeout", ...)  returns 0x01 (0000ms, 0532ms total)
T1118 000:883 JLINK_GetHardwareVersion()  returns 0x11170 (0000ms, 0532ms total)
T1118 000:883 JLINK_GetDLLVersion()  returns 49604 (0000ms, 0532ms total)
T1118 000:883 JLINK_GetFirmwareString(...) (0000ms, 0532ms total)
T1118 000:884 JLINK_GetDLLVersion()  returns 49604 (0000ms, 0532ms total)
T1118 000:884 JLINK_GetCompileDateTime() (0000ms, 0532ms total)
T1118 000:885 JLINK_GetFirmwareString(...) (0000ms, 0532ms total)
T1118 000:885 JLINK_GetHardwareVersion()  returns 0x11170 (0000ms, 0532ms total)
T1118 000:886 JLINK_TIF_Select(JLINKARM_TIF_SWD)  returns 0x00 (0001ms, 0533ms total)
T1118 000:887 JLINK_SetSpeed(2000) (0000ms, 0533ms total)
T1118 000:887 JLINK_GetId() >0x108 TIF>Found SWD-DP with ID 0x1BA01477 >0x0D TIF> >0x28 TIF> >0x0D TIF> >0x28 TIF> >0x0D TIF> >0x21 TIF> >0x0D TIF> >0x28 TIF> >0x0D TIF> >0x28 TIF> >0x0D TIF> >0x28 TIF> >0x0D TIF> >0x21 TIF> >0x0D TIF> >0x21 TIF> >0x0D TIF> >0x28 TIF> >0x0D TIF> >0x21 TIF> >0x0D TIF> >0x21 TIF> >0x108 TIF>Found SWD-DP with ID 0x1BA01477 >0x0D TIF> >0x21 TIF> >0x0D TIF> >0x28 TIF> >0x0D TIF> >0x28 TIF> >0x0D TIF> >0x21 TIF> >0x0D TIF> >0x28 TIF> >0x0D TIF> >0x21 TIF> >0x0D TIF> >0x21 TIF>
 >0x0D TIF> >0x21 TIF> >0x0D TIF> >0x21 TIF> >0x0D TIF> >0x28 TIF> >0x0D TIF> >0x28 TIF> >0x0D TIF> >0x21 TIF> >0x0D TIF> >0x28 TIF> >0x0D TIF> >0x28 TIF> >0x0D TIF> >0x28 TIF> >0x0D TIF> >0x21 TIF> >0x0D TIF> >0x21 TIF> >0x0D TIF> >0x28 TIF> >0x0D TIF> >0x21 TIF> >0x0D TIF> >0x21 TIF>Found Cortex-M3 r1p1, Little endian. -- CPU_WriteMem(4 bytes @ 0xE0002000) -- CPU_ReadMem(4 bytes @ 0xE000EDF0) -- CPU_ReadMem(4 bytes @ 0xE0002000)FPUnit: 6 code (BP) slots and 2 literal slots
 -- CPU_ReadMem(4 bytes @ 0xE000EDFC) -- CPU_ReadMem(4 bytes @ 0xE0001000) -- CPU_WriteMem(4 bytes @ 0xE0001000) -- CPU_ReadMem(4 bytes @ 0xE000ED88) -- CPU_WriteMem(4 bytes @ 0xE000ED88) -- CPU_ReadMem(4 bytes @ 0xE000ED88) -- CPU_WriteMem(4 bytes @ 0xE000ED88) -- CPU_ReadMem(4 bytes @ 0xE00FF010)TPIU fitted. -- CPU_ReadMem(4 bytes @ 0xE00FF014) -- CPU_ReadMem(4 bytes @ 0xE00FF018) >0x0D TIF> >0x21 TIF>  returns 0x1BA01477 (0040ms, 0573ms total)
T1118 000:927 JLINK_GetDLLVersion()  returns 49604 (0000ms, 0573ms total)
T1118 000:927 JLINK_CORE_GetFound()  returns 0x30000FF (0000ms, 0573ms total)
T1118 000:927 JLINK_GetDebugInfo(0x100) -- Value=0xE00FF003  returns 0x00 (0000ms, 0573ms total)
T1118 000:928 JLINK_ReadMem (0xE00FF000, 0x0020 Bytes, ...) -- CPU is running -- CPU_ReadMem(32 bytes @ 0xE00FF000) - Data: 03 F0 F0 FF 03 20 F0 FF 03 30 F0 FF 03 10 F0 FF ...  returns 0x00 (0000ms, 0573ms total)
T1118 000:928 JLINK_ReadMem (0xE000EFF0, 0x0010 Bytes, ...) -- CPU is running -- CPU_ReadMem(16 bytes @ 0xE000EFF0) - Data: 0D 00 00 00 E0 00 00 00 05 00 00 00 B1 00 00 00  returns 0x00 (0001ms, 0574ms total)
T1118 000:929 JLINK_ReadMem (0xE000EFD0, 0x0020 Bytes, ...) -- CPU is running -- CPU_ReadMem(32 bytes @ 0xE000EFD0) - Data: 04 00 00 00 00 00 00 00 00 00 00 00 00 00 00 00 ...  returns 0x00 (0001ms, 0575ms total)
T1118 000:930 JLINK_ReadMem (0xE0001FF0, 0x0010 Bytes, ...) -- CPU is running -- CPU_ReadMem(16 bytes @ 0xE0001FF0) - Data: 0D 00 00 00 E0 00 00 00 05 00 00 00 B1 00 00 00  returns 0x00 (0001ms, 0576ms total)
T1118 000:931 JLINK_ReadMem (0xE0001FD0, 0x0020 Bytes, ...) -- CPU is running -- CPU_ReadMem(32 bytes @ 0xE0001FD0) - Data: 04 00 00 00 00 00 00 00 00 00 00 00 00 00 00 00 ...  returns 0x00 (0001ms, 0577ms total)
T1118 000:932 JLINK_ReadMem (0xE0002FF0, 0x0010 Bytes, ...) -- CPU is running -- CPU_ReadMem(16 bytes @ 0xE0002FF0) - Data: 0D 00 00 00 E0 00 00 00 05 00 00 00 B1 00 00 00  returns 0x00 (0000ms, 0577ms total)
T1118 000:932 JLINK_ReadMem (0xE0002FD0, 0x0020 Bytes, ...) -- CPU is running -- CPU_ReadMem(32 bytes @ 0xE0002FD0) - Data: 04 00 00 00 00 00 00 00 00 00 00 00 00 00 00 00 ...  returns 0x00 (0001ms, 0578ms total)
T1118 000:933 JLINK_ReadMem (0xE0000FF0, 0x0010 Bytes, ...) -- CPU is running -- CPU_ReadMem(16 bytes @ 0xE0000FF0) - Data: 0D 00 00 00 E0 00 00 00 05 00 00 00 B1 00 00 00  returns 0x00 (0001ms, 0579ms total)
T1118 000:934 JLINK_ReadMem (0xE0000FD0, 0x0020 Bytes, ...) -- CPU is running -- CPU_ReadMem(32 bytes @ 0xE0000FD0) - Data: 04 00 00 00 00 00 00 00 00 00 00 00 00 00 00 00 ...  returns 0x00 (0000ms, 0579ms total)
T1118 000:934 JLINK_ReadMem (0xE0040FF0, 0x0010 Bytes, ...) -- CPU is running -- CPU_ReadMem(16 bytes @ 0xE0040FF0) - Data: 0D 00 00 00 90 00 00 00 05 00 00 00 B1 00 00 00  returns 0x00 (0001ms, 0580ms total)
T1118 000:935 JLINK_ReadMem (0xE0040FD0, 0x0020 Bytes, ...) -- CPU is running -- CPU_ReadMem(32 bytes @ 0xE0040FD0) - Data: 04 00 00 00 00 00 00 00 00 00 00 00 00 00 00 00 ...  returns 0x00 (0001ms, 0581ms total)
T1118 000:936 JLINK_ReadMemU32(0xE000ED00, 0x0001 Items, ...) -- CPU is running -- CPU_ReadMem(4 bytes @ 0xE000ED00) - Data: 31 C2 1F 41  returns 0x01 (0001ms, 0582ms total)
T1118 000:937 JLINK_SetResetType(JLINKARM_RESET_TYPE_NORMAL)  returns JLINKARM_RESET_TYPE_NORMAL (0000ms, 0582ms total)
T1118 000:937 JLINK_Reset() -- CPU is running -- CPU_WriteMem(4 bytes @ 0xE000EDF0) -- CPU is running -- CPU_WriteMem(4 bytes @ 0xE000EDFC) >0x35 TIF> -- CPU is running -- CPU_WriteMem(4 bytes @ 0xE000ED0C) -- CPU is running -- CPU_ReadMem(4 bytes @ 0xE000EDF0) -- CPU is running -- CPU_ReadMem(4 bytes @ 0xE000EDF0) -- CPU is running -- CPU_WriteMem(4 bytes @ 0xE000EDF0) -- CPU is running -- CPU_WriteMem(4 bytes @ 0xE000EDFC) -- CPU is running -- CPU_ReadMem(4 bytes @ 0xE000EDF0)
 -- CPU_WriteMem(4 bytes @ 0xE0002000) -- CPU_ReadMem(4 bytes @ 0xE000EDFC) -- CPU_ReadMem(4 bytes @ 0xE0001000) (0019ms, 0601ms total)
T1118 000:956 JLINK_ReadReg(R15 (PC))  returns 0x08000100 (0000ms, 0601ms total)
T1118 000:956 JLINK_ReadReg(XPSR)  returns 0x01000000 (0000ms, 0601ms total)
T1118 000:956 JLINK_Halt()  returns 0x00 (0000ms, 0601ms total)
T1118 000:956 JLINK_IsHalted()  returns TRUE (0000ms, 0601ms total)
T1118 000:956 JLINK_ReadMemU32(0xE000EDF0, 0x0001 Items, ...) -- CPU_ReadMem(4 bytes @ 0xE000EDF0) - Data: 03 00 03 00  returns 0x01 (0001ms, 0602ms total)
T1118 000:957 JLINK_WriteU32(0xE000EDF0, 0xA05F0003) -- CPU_WriteMem(4 bytes @ 0xE000EDF0)  returns 0x00 (0000ms, 0602ms total)
T1118 000:957 JLINK_WriteU32(0xE000EDFC, 0x01000000) -- CPU_WriteMem(4 bytes @ 0xE000EDFC)  returns 0x00 (0001ms, 0603ms total)
T1118 000:959 JLINK_GetHWStatus(...)  returns 0x00 (0001ms, 0604ms total)
T1118 000:960 JLINK_GetNumBPUnits(Type = 0xFFFFFF00)  returns 0x06 (0000ms, 0604ms total)
T1118 000:960 JLINK_GetNumBPUnits(Type = 0xF0)  returns 0x2000 (0000ms, 0604ms total)
T1118 000:960 JLINK_GetNumWPUnits()  returns 0x04 (0000ms, 0604ms total)
T1118 000:961 JLINK_GetSpeed()  returns 0x7D0 (0000ms, 0604ms total)
T1118 000:962 JLINK_ReadMemU32(0xE000E004, 0x0001 Items, ...) -- CPU_ReadMem(4 bytes @ 0xE000E004) - Data: 01 00 00 00  returns 0x01 (0000ms, 0604ms total)
T1118 000:962 JLINK_ReadMemU32(0xE000E004, 0x0001 Items, ...) -- CPU_ReadMem(4 bytes @ 0xE000E004) - Data: 01 00 00 00  returns 0x01 (0001ms, 0605ms total)
T1118 000:963 JLINK_WriteMem(0xE0001000, 0x001C Bytes, ...) - Data: 01 00 00 00 00 00 00 00 00 00 00 00 00 00 00 00 ... -- CPU_WriteMem(28 bytes @ 0xE0001000)  returns 0x1C (0001ms, 0606ms total)
T1118 000:964 JLINK_ReadMem (0xE0001000, 0x001C Bytes, ...) -- CPU_ReadMem(28 bytes @ 0xE0001000) - Data: 01 00 00 40 00 00 00 00 00 00 00 00 00 00 00 00 ...  returns 0x00 (0000ms, 0606ms total)
T1118 000:964 JLINK_ReadReg(R15 (PC))  returns 0x08000100 (0001ms, 0607ms total)
T1118 000:965 JLINK_ReadReg(XPSR)  returns 0x01000000 (0000ms, 0607ms total)
T1118 001:006 JLINK_WriteMem(0x08000000, 0x0400 Bytes, ...) - Data: C0 04 00 20 01 01 00 08 CF 1B 00 08 37 17 00 08 ...  returns 0x400 (0001ms, 0608ms total)
T1118 001:007 JLINK_WriteMem(0x08000400, 0x0400 Bytes, ...) - Data: 49 08 4F EA 30 00 92 18 5B 41 50 EA 01 07 ED D1 ...  returns 0x400 (0000ms, 0608ms total)
T1118 001:007 JLINK_WriteMem(0x08000800, 0x0400 Bytes, ...) - Data: 01 D1 03 26 00 E0 04 26 06 FA 08 F6 2E 43 CC F8 ...  returns 0x400 (0000ms, 0608ms total)
T1118 001:007 JLINK_WriteMem(0x08000C00, 0x0400 Bytes, ...) - Data: 03 28 50 D8 01 28 0C D0 02 28 4B 46 4F F0 00 02 ...  returns 0x400 (0000ms, 0608ms total)
T1118 001:008 JLINK_WriteMem(0x08001000, 0x0400 Bytes, ...) - Data: 07 00 B0 42 63 D1 28 78 44 4C 80 07 05 D5 60 68 ...  returns 0x400 (0000ms, 0608ms total)
T1118 001:008 JLINK_WriteMem(0x08001400, 0x0400 Bytes, ...) - Data: 59 45 5A D8 28 6A 80 07 F6 D5 0C E0 FF F7 40 FA ...  returns 0x400 (0000ms, 0608ms total)
T1118 001:008 JLINK_WriteMem(0x08001800, 0x0400 Bytes, ...) - Data: 00 91 01 68 41 F4 80 71 01 60 53 46 00 22 41 46 ...  returns 0x400 (0000ms, 0608ms total)
T1118 001:008 JLINK_WriteMem(0x08001C00, 0x0400 Bytes, ...) - Data: DB BC 30 B5 8F B0 01 21 08 04 CD E9 00 10 00 24 ...  returns 0x400 (0000ms, 0608ms total)
T1118 001:008 JLINK_WriteMem(0x08002000, 0x0400 Bytes, ...) - Data: 08 D0 00 21 00 98 0F 9B C0 E9 00 21 C0 E9 02 43 ...  returns 0x400 (0001ms, 0609ms total)
T1118 001:009 JLINK_WriteMem(0x08002400, 0x0400 Bytes, ...) - Data: 0E E0 40 22 8D F8 04 20 01 22 08 E0 5C EA 01 02 ...  returns 0x400 (0000ms, 0609ms total)
T1118 001:009 JLINK_WriteMem(0x08002800, 0x0400 Bytes, ...) - Data: 88 04 04 D4 05 E0 39 46 20 20 B0 47 6D 1C 64 1E ...  returns 0x400 (0000ms, 0609ms total)
T1118 001:009 JLINK_WriteMem(0x08002C00, 0x0128 Bytes, ...) - Data: 73 63 61 6C 65 20 66 61 69 6C 65 64 21 00 00 00 ...  returns 0x128 (0000ms, 0609ms total)
T1118 001:063 JLINK_SetResetType(JLINKARM_RESET_TYPE_NORMAL)  returns JLINKARM_RESET_TYPE_NORMAL (0000ms, 0609ms total)
T1118 001:063 JLINK_Reset() -- -------------------------------------- -- Start of determining dirty areas -- End of determining dirty areas -- Start of preparing flash programming -- Calculating RAM usage -- RAM usage = 2996 Bytes -- Preserving registers -- Preparing memory -- Determining CPU clock frequency -- CPU clock frequency: 7992 kHz -- CPU frequency = 7992 kHz -- Preparing target -- Downloading RAMCode -- Using alternate TurboMode RAMCode -- Checking target RAM -- Preparing RAMCode
 -- End of preparing flash programmingCPU is running at low speed (7992 kHz). -- CPU is running at 7992 kHz. -- Start of comparing flash -- CRC check was estimated as fastest method -- Comparing range 0x8000000 - 0x8002FFF (12 Sectors, 12 KB), using multi-block CRC calculation -- All CRCs match -- Comparing range 0x8000000 - 0x8002FFF (12 Sectors, 12 KB), using alternative multi-block CRC calculation -- All CRCs match -- End of comparing flash -- Start of erasing sectors -- End of erasing sectors
 -- Start of flash programming -- End of flash programming -- Start of verifying flash -- End of verifying flash -- Start of restoring -- Restore RAMCode -- Restore content of target memory -- Restore target -- Restore memory -- Restore content of registers -- End of restoring -- Flash download into internal flash skipped. Flash contents already match -- Flash download into internal flash skipped. Flash contents already match
 -- Total time needed: 0.311s (Prepare: 0.237s, Compare: 0.068s, Erase: 0.000s, Program: 0.000s, Verify: 0.000s, Restore: 0.005s) -- CPU_WriteMem(4 bytes @ 0xE000EDF0) -- CPU_WriteMem(4 bytes @ 0xE000EDFC) >0x35 TIF> -- CPU_WriteMem(4 bytes @ 0xE000ED0C) -- CPU_ReadMem(4 bytes @ 0xE000EDF0) -- CPU_ReadMem(4 bytes @ 0xE000EDF0) -- CPU_WriteMem(4 bytes @ 0xE000EDF0) -- CPU_WriteMem(4 bytes @ 0xE000EDFC) -- CPU is running -- CPU_ReadMem(4 bytes @ 0xE000EDF0) -- CPU_WriteMem(4 bytes @ 0xE0002000)
 -- CPU_ReadMem(4 bytes @ 0xE000EDFC) -- CPU_ReadMem(4 bytes @ 0xE0001000) (0331ms, 0940ms total)
T1118 001:394 JLINK_ReadReg(R15 (PC))  returns 0x08000100 (0000ms, 0940ms total)
T1118 001:395 JLINK_ReadReg(XPSR)  returns 0x01000000 (0000ms, 0940ms total)
T1118 001:535 JLINK_ReadMem (0x08000100, 0x003C Bytes, ...) -- Read from flash cache (60 bytes @ 0x08000100) - Data: 06 48 80 47 06 48 00 47 FE E7 FE E7 FE E7 FE E7 ...  returns 0x00 (0000ms, 0940ms total)
T1118 001:615 JLINK_ReadMem (0x40005800, 0x0020 Bytes, ...) -- CPU_ReadMem(32 bytes @ 0x40005800) - Data: 00 00 00 00 00 00 00 00 00 00 00 00 00 00 00 00 ...  returns 0x00 (0001ms, 0941ms total)
T1118 001:616 JLINK_ReadMem (0x40005820, 0x0004 Bytes, ...) -- CPU_ReadMem(4 bytes @ 0x40005820) - Data: 00 00 00 00  returns 0x00 (0001ms, 0942ms total)
T1118 001:660 JLINK_ReadMem (0x40021000, 0x0024 Bytes, ...) -- CPU_ReadMem(36 bytes @ 0x40021000) - Data: 83 5D 00 00 00 00 00 00 00 00 00 00 00 00 00 00 ...  returns 0x00 (0001ms, 0943ms total)
T1118 001:661 JLINK_ReadMem (0x40021024, 0x0004 Bytes, ...) -- CPU_ReadMem(4 bytes @ 0x40021024) - Data: 00 00 00 1C  returns 0x00 (0000ms, 0943ms total)
T1118 001:691 JLINK_ReadMem (0x40013800, 0x0018 Bytes, ...) -- CPU_ReadMem(24 bytes @ 0x40013800) - Data: 00 00 00 00 00 00 00 00 00 00 00 00 00 00 00 00 ...  returns 0x00 (0001ms, 0944ms total)
T1118 001:692 JLINK_ReadMem (0x40013818, 0x0004 Bytes, ...) -- CPU_ReadMem(4 bytes @ 0x40013818) - Data: 00 00 00 00  returns 0x00 (0001ms, 0945ms total)
T1118 002:088 JLINK_ReadMem (0x00000000, 0x0088 Bytes, ...) -- CPU_ReadMem(4 bytes @ 0x00000004) -- Read from flash cache (136 bytes @ 0x08000000) - Data: C0 04 00 20 01 01 00 08 CF 1B 00 08 37 17 00 08 ...  returns 0x00 (0001ms, 0946ms total)
T0D98 002:797 JLINK_SetBPEx(Addr = 0x08002AF0, Type = 0xFFFFFFF2)  returns 0x00000001 (0000ms, 0946ms total)
T0D98 002:797 JLINK_SetBPEx(Addr = 0x08002B98, Type = 0xFFFFFFF2)  returns 0x00000002 (0000ms, 0946ms total)
T0D98 002:797 JLINK_Go() -- CPU_WriteMem(4 bytes @ 0xE0002000) -- CPU_WriteMem(4 bytes @ 0xE0002000) -- CPU_WriteMem(4 bytes @ 0xE0002008) -- CPU_WriteMem(4 bytes @ 0xE000200C) -- CPU_WriteMem(4 bytes @ 0xE0002010) -- CPU_WriteMem(4 bytes @ 0xE0002014) -- CPU_WriteMem(4 bytes @ 0xE0002018) -- CPU_WriteMem(4 bytes @ 0xE000201C) -- CPU_WriteMem(4 bytes @ 0xE0001004) (0005ms, 0951ms total)
T0D98 002:903 JLINK_IsHalted()  returns TRUE (0003ms, 0954ms total)
T0D98 002:906 JLINK_Halt()  returns 0x00 (0000ms, 0951ms total)
T0D98 002:906 JLINK_IsHalted()  returns TRUE (0000ms, 0951ms total)
T0D98 002:906 JLINK_IsHalted()  returns TRUE (0000ms, 0951ms total)
T0D98 002:906 JLINK_IsHalted()  returns TRUE (0000ms, 0951ms total)
T0D98 002:906 JLINK_ReadReg(R15 (PC))  returns 0x08002AF0 (0000ms, 0951ms total)
T0D98 002:906 JLINK_ReadReg(XPSR)  returns 0x61000000 (0000ms, 0951ms total)
T0D98 002:906 JLINK_ClrBPEx(BPHandle = 0x00000001)  returns 0x00 (0000ms, 0951ms total)
T0D98 002:906 JLINK_ClrBPEx(BPHandle = 0x00000002)  returns 0x00 (0000ms, 0951ms total)
T0D98 002:906 JLINK_ReadMemU32(0xE000ED30, 0x0001 Items, ...) -- CPU_ReadMem(4 bytes @ 0xE000ED30) - Data: 03 00 00 00  returns 0x01 (0000ms, 0951ms total)
T0D98 002:906 JLINK_ReadMemU32(0xE0001028, 0x0001 Items, ...) -- CPU_ReadMem(4 bytes @ 0xE0001028) - Data: 00 00 00 00  returns 0x01 (0001ms, 0952ms total)
T0D98 002:907 JLINK_ReadMemU32(0xE0001038, 0x0001 Items, ...) -- CPU_ReadMem(4 bytes @ 0xE0001038) - Data: 00 02 00 00  returns 0x01 (0001ms, 0953ms total)
T0D98 002:908 JLINK_ReadMemU32(0xE0001048, 0x0001 Items, ...) -- CPU_ReadMem(4 bytes @ 0xE0001048) - Data: 00 00 00 00  returns 0x01 (0000ms, 0953ms total)
T0D98 002:908 JLINK_ReadMemU32(0xE0001058, 0x0001 Items, ...) -- CPU_ReadMem(4 bytes @ 0xE0001058) - Data: 00 00 00 00  returns 0x01 (0001ms, 0954ms total)
T0D98 002:909 JLINK_ReadReg(R0)  returns 0x08002AF1 (0000ms, 0954ms total)
T0D98 002:909 JLINK_ReadReg(R1)  returns 0x200004C0 (0000ms, 0954ms total)
T0D98 002:909 JLINK_ReadReg(R2)  returns 0x00000000 (0000ms, 0954ms total)
T0D98 002:909 JLINK_ReadReg(R3)  returns 0x08001FA5 (0000ms, 0954ms total)
T0D98 002:909 JLINK_ReadReg(R4)  returns 0x08002D00 (0000ms, 0954ms total)
T0D98 002:909 JLINK_ReadReg(R5)  returns 0x08002D00 (0000ms, 0954ms total)
T0D98 002:909 JLINK_ReadReg(R6)  returns 0x2000070C (0000ms, 0954ms total)
T0D98 002:909 JLINK_ReadReg(R7)  returns 0x00000010 (0000ms, 0954ms total)
T0D98 002:909 JLINK_ReadReg(R8)  returns 0x00000001 (0000ms, 0954ms total)
T0D98 002:909 JLINK_ReadReg(R9)  returns 0x00000005 (0000ms, 0954ms total)
T0D98 002:909 JLINK_ReadReg(R10)  returns 0x000000D0 (0000ms, 0954ms total)
T0D98 002:909 JLINK_ReadReg(R11)  returns 0x000000D0 (0000ms, 0954ms total)
T0D98 002:909 JLINK_ReadReg(R12)  returns 0x20000628 (0000ms, 0954ms total)
T0D98 002:909 JLINK_ReadReg(R13 (SP))  returns 0x200004C0 (0000ms, 0954ms total)
T0D98 002:909 JLINK_ReadReg(R14)  returns 0x080006AD (0000ms, 0954ms total)
T0D98 002:909 JLINK_ReadReg(R15 (PC))  returns 0x08002AF0 (0000ms, 0954ms total)
T0D98 002:909 JLINK_ReadReg(XPSR)  returns 0x61000000 (0000ms, 0954ms total)
T0D98 002:909 JLINK_ReadReg(MSP)  returns 0x200004C0 (0000ms, 0954ms total)
T0D98 002:909 JLINK_ReadReg(PSP)  returns 0x20001000 (0000ms, 0954ms total)
T0D98 002:909 JLINK_ReadReg(CFBP)  returns 0x00000000 (0000ms, 0954ms total)
T1118 002:909 JLINK_ReadMem (0x40021000, 0x0024 Bytes, ...) -- CPU_ReadMem(36 bytes @ 0x40021000) - Data: 83 5D 00 00 00 00 00 00 00 00 00 00 00 00 00 00 ...  returns 0x00 (0001ms, 0955ms total)
T1118 002:910 JLINK_ReadMem (0x40021024, 0x0004 Bytes, ...) -- CPU_ReadMem(4 bytes @ 0x40021024) - Data: 00 00 00 1C  returns 0x00 (0000ms, 0955ms total)
T1118 002:911 JLINK_ReadMem (0x40005800, 0x0020 Bytes, ...) -- CPU_ReadMem(32 bytes @ 0x40005800) - Data: 00 00 00 00 00 00 00 00 00 00 00 00 00 00 00 00 ...  returns 0x00 (0001ms, 0956ms total)
T1118 002:912 JLINK_ReadMem (0x40005820, 0x0004 Bytes, ...) -- CPU_ReadMem(4 bytes @ 0x40005820) - Data: 00 00 00 00  returns 0x00 (0000ms, 0956ms total)
T1118 002:912 JLINK_ReadMem (0x40013800, 0x0018 Bytes, ...) -- CPU_ReadMem(24 bytes @ 0x40013800) - Data: 00 00 00 00 00 00 00 00 00 00 00 00 00 00 00 00 ...  returns 0x00 (0001ms, 0957ms total)
T1118 002:913 JLINK_ReadMem (0x40013818, 0x0004 Bytes, ...) -- CPU_ReadMem(4 bytes @ 0x40013818) - Data: 00 00 00 00  returns 0x00 (0002ms, 0959ms total)
T1118 002:915 JLINK_ReadMem (0x080029F0, 0x003C Bytes, ...) -- Read from flash cache (60 bytes @ 0x080029F0) - Data: 02 EB C6 03 D3 E9 00 23 FD F7 45 FC 22 46 2B 46 ...  returns 0x00 (0000ms, 0959ms total)
T1118 002:915 JLINK_ReadMem (0x08002A68, 0x003C Bytes, ...) -- Read from flash cache (60 bytes @ 0x08002A68) - Data: 13 B5 05 23 01 22 69 46 02 48 FE F7 03 FE 00 98 ...  returns 0x00 (0000ms, 0959ms total)
T1118 002:915 JLINK_ReadMem (0x08002AA4, 0x003C Bytes, ...) -- Read from flash cache (60 bytes @ 0x08002AA4) - Data: FD F7 D6 FC 00 22 0E 4B FD F7 63 FC C4 E9 00 01 ...  returns 0x00 (0000ms, 0959ms total)
T1118 002:915 JLINK_ReadMem (0x08002AE0, 0x003C Bytes, ...) -- Read from flash cache (60 bytes @ 0x08002AE0) - Data: FE BD 00 00 C0 FF DF 40 D9 CE F7 53 E3 A5 4C C0 ...  returns 0x00 (0000ms, 0959ms total)
T0D98 004:179 JLINK_SetBPEx(Addr = 0x08002B98, Type = 0xFFFFFFF2)  returns 0x00000003 (0000ms, 0959ms total)
T0D98 004:179 JLINK_Go() -- CPU_WriteMem(4 bytes @ 0xE0002000) -- CPU_WriteMem(4 bytes @ 0xE0002008) -- CPU_WriteMem(4 bytes @ 0xE000200C) (0002ms, 0961ms total)
T0D98 004:282 JLINK_IsHalted()  returns FALSE (0000ms, 0961ms total)
T0D98 004:384 JLINK_IsHalted()  returns FALSE (0001ms, 0962ms total)
T0D98 004:486 JLINK_IsHalted()  returns FALSE (0001ms, 0962ms total)
T0D98 004:587 JLINK_IsHalted()  returns FALSE (0000ms, 0961ms total)
T0D98 004:689 JLINK_ReadMemU32(0xE0001004, 0x0001 Items, ...) -- CPU is running -- CPU_ReadMem(4 bytes @ 0xE0001004) - Data: 25 78 2D 02  returns 0x01 (0001ms, 0962ms total)
T1118 004:690 JLINK_ReadMem (0x40021000, 0x0024 Bytes, ...) -- CPU is running -- CPU_ReadMem(36 bytes @ 0x40021000) - Data: 83 5D 03 03 0A 04 1D 00 00 00 00 00 00 00 00 00 ...  returns 0x00 (0001ms, 0963ms total)
T1118 004:691 JLINK_ReadMem (0x40021024, 0x0004 Bytes, ...) -- CPU is running -- CPU_ReadMem(4 bytes @ 0x40021024) - Data: 00 00 00 1C  returns 0x00 (0001ms, 0964ms total)
T1118 004:694 JLINK_ReadMem (0x40005800, 0x0020 Bytes, ...) -- CPU is running -- CPU_ReadMem(32 bytes @ 0x40005800) - Data: 00 00 00 00 00 00 00 00 00 00 00 00 00 00 00 00 ...  returns 0x00 (0001ms, 0965ms total)
T1118 004:695 JLINK_ReadMem (0x40005820, 0x0004 Bytes, ...) -- CPU is running -- CPU_ReadMem(4 bytes @ 0x40005820) - Data: 00 00 00 00  returns 0x00 (0001ms, 0966ms total)
T1118 004:697 JLINK_ReadMem (0x40013800, 0x0018 Bytes, ...) -- CPU is running -- CPU_ReadMem(24 bytes @ 0x40013800) - Data: C0 00 00 00 00 00 00 00 71 02 00 00 0C 20 00 00 ...  returns 0x00 (0001ms, 0967ms total)
T1118 004:698 JLINK_ReadMem (0x40013818, 0x0004 Bytes, ...) -- CPU is running -- CPU_ReadMem(4 bytes @ 0x40013818) - Data: 00 00 00 00  returns 0x00 (0001ms, 0968ms total)
T0D98 004:700 JLINK_IsHalted()  returns FALSE (0001ms, 0969ms total)
T0D98 004:802 JLINK_IsHalted()  returns FALSE (0000ms, 0968ms total)
T0D98 004:903 JLINK_IsHalted()  returns FALSE (0000ms, 0968ms total)
T0D98 005:004 JLINK_IsHalted()  returns FALSE (0000ms, 0968ms total)
T0D98 005:105 JLINK_IsHalted()  returns FALSE (0000ms, 0968ms total)
T0D98 005:206 JLINK_ReadMemU32(0xE0001004, 0x0001 Items, ...) -- CPU is running -- CPU_ReadMem(4 bytes @ 0xE0001004) - Data: 9F 80 65 04  returns 0x01 (0001ms, 0969ms total)
T1118 005:207 JLINK_ReadMem (0x40021000, 0x0024 Bytes, ...) -- CPU is running -- CPU_ReadMem(36 bytes @ 0x40021000) - Data: 83 5D 03 03 0A 04 1D 00 00 00 00 00 00 00 00 00 ...  returns 0x00 (0001ms, 0970ms total)
T1118 005:208 JLINK_ReadMem (0x40021024, 0x0004 Bytes, ...) -- CPU is running -- CPU_ReadMem(4 bytes @ 0x40021024) - Data: 00 00 00 1C  returns 0x00 (0000ms, 0970ms total)
T1118 005:209 JLINK_ReadMem (0x40005800, 0x0020 Bytes, ...) -- CPU is running -- CPU_ReadMem(32 bytes @ 0x40005800) - Data: 00 00 00 00 00 00 00 00 00 00 00 00 00 00 00 00 ...  returns 0x00 (0001ms, 0971ms total)
T1118 005:210 JLINK_ReadMem (0x40005820, 0x0004 Bytes, ...) -- CPU is running -- CPU_ReadMem(4 bytes @ 0x40005820) - Data: 00 00 00 00  returns 0x00 (0001ms, 0972ms total)
T1118 005:212 JLINK_ReadMem (0x40013800, 0x0018 Bytes, ...) -- CPU is running -- CPU_ReadMem(24 bytes @ 0x40013800) - Data: C0 00 00 00 00 00 00 00 71 02 00 00 0C 20 00 00 ...  returns 0x00 (0001ms, 0973ms total)
T1118 005:213 JLINK_ReadMem (0x40013818, 0x0004 Bytes, ...) -- CPU is running -- CPU_ReadMem(4 bytes @ 0x40013818) - Data: 00 00 00 00  returns 0x00 (0001ms, 0974ms total)
T0D98 005:214 JLINK_IsHalted()  returns FALSE (0001ms, 0975ms total)
T0D98 005:315 JLINK_IsHalted()  returns FALSE (0000ms, 0974ms total)
T0D98 005:417 JLINK_IsHalted()  returns FALSE (0000ms, 0974ms total)
T0D98 005:518 JLINK_IsHalted()  returns FALSE (0000ms, 0974ms total)
T0D98 005:619 JLINK_IsHalted()  returns FALSE (0001ms, 0975ms total)
T0D98 005:721 JLINK_ReadMemU32(0xE0001004, 0x0001 Items, ...) -- CPU is running -- CPU_ReadMem(4 bytes @ 0xE0001004) - Data: 80 AD 9B 06  returns 0x01 (0000ms, 0974ms total)
T1118 005:721 JLINK_ReadMem (0x40021000, 0x0024 Bytes, ...) -- CPU is running -- CPU_ReadMem(36 bytes @ 0x40021000) - Data: 83 5D 03 03 0A 04 1D 00 00 00 00 00 00 00 00 00 ...  returns 0x00 (0002ms, 0976ms total)
T1118 005:723 JLINK_ReadMem (0x40021024, 0x0004 Bytes, ...) -- CPU is running -- CPU_ReadMem(4 bytes @ 0x40021024) - Data: 00 00 00 1C  returns 0x00 (0000ms, 0976ms total)
T1118 005:724 JLINK_ReadMem (0x40005800, 0x0020 Bytes, ...) -- CPU is running -- CPU_ReadMem(32 bytes @ 0x40005800) - Data: 00 00 00 00 00 00 00 00 00 00 00 00 00 00 00 00 ...  returns 0x00 (0001ms, 0977ms total)
T1118 005:725 JLINK_ReadMem (0x40005820, 0x0004 Bytes, ...) -- CPU is running -- CPU_ReadMem(4 bytes @ 0x40005820) - Data: 00 00 00 00  returns 0x00 (0001ms, 0978ms total)
T1118 005:726 JLINK_ReadMem (0x40013800, 0x0018 Bytes, ...) -- CPU is running -- CPU_ReadMem(24 bytes @ 0x40013800) - Data: C0 00 00 00 00 00 00 00 71 02 00 00 0C 20 00 00 ...  returns 0x00 (0001ms, 0979ms total)
T1118 005:727 JLINK_ReadMem (0x40013818, 0x0004 Bytes, ...) -- CPU is running -- CPU_ReadMem(4 bytes @ 0x40013818) - Data: 00 00 00 00  returns 0x00 (0000ms, 0979ms total)
T0D98 005:728 JLINK_IsHalted()  returns FALSE (0000ms, 0979ms total)
T0D98 005:830 JLINK_IsHalted()  returns FALSE (0000ms, 0979ms total)
T0D98 005:931 JLINK_IsHalted()  returns FALSE (0000ms, 0979ms total)
T0D98 006:032 JLINK_IsHalted()  returns FALSE (0000ms, 0979ms total)
T0D98 006:133 JLINK_IsHalted()  returns FALSE (0001ms, 0980ms total)
T0D98 006:234 JLINK_ReadMemU32(0xE0001004, 0x0001 Items, ...) -- CPU is running -- CPU_ReadMem(4 bytes @ 0xE0001004) - Data: 5E F7 CF 08  returns 0x01 (0001ms, 0980ms total)
T1118 006:236 JLINK_ReadMem (0x40021000, 0x0024 Bytes, ...) -- CPU is running -- CPU_ReadMem(36 bytes @ 0x40021000) - Data: 83 5D 03 03 0A 04 1D 00 00 00 00 00 00 00 00 00 ...  returns 0x00 (0001ms, 0981ms total)
T1118 006:237 JLINK_ReadMem (0x40021024, 0x0004 Bytes, ...) -- CPU is running -- CPU_ReadMem(4 bytes @ 0x40021024) - Data: 00 00 00 1C  returns 0x00 (0001ms, 0982ms total)
T1118 006:239 JLINK_ReadMem (0x40005800, 0x0020 Bytes, ...) -- CPU is running -- CPU_ReadMem(32 bytes @ 0x40005800) - Data: 00 00 00 00 00 00 00 00 00 00 00 00 00 00 00 00 ...  returns 0x00 (0002ms, 0984ms total)
T1118 006:241 JLINK_ReadMem (0x40005820, 0x0004 Bytes, ...) -- CPU is running -- CPU_ReadMem(4 bytes @ 0x40005820) - Data: 00 00 00 00  returns 0x00 (0000ms, 0984ms total)
T1118 006:242 JLINK_ReadMem (0x40013800, 0x0018 Bytes, ...) -- CPU is running -- CPU_ReadMem(24 bytes @ 0x40013800) - Data: C0 00 00 00 00 00 00 00 71 02 00 00 0C 20 00 00 ...  returns 0x00 (0001ms, 0985ms total)
T1118 006:243 JLINK_ReadMem (0x40013818, 0x0004 Bytes, ...) -- CPU is running -- CPU_ReadMem(4 bytes @ 0x40013818) - Data: 00 00 00 00  returns 0x00 (0002ms, 0987ms total)
T0D98 006:246 JLINK_IsHalted()  returns FALSE (0001ms, 0988ms total)
T0D98 006:347 JLINK_IsHalted()  returns FALSE (0000ms, 0987ms total)
T0D98 006:447 JLINK_IsHalted()  returns FALSE (0001ms, 0988ms total)
T0D98 006:548 JLINK_IsHalted()  returns FALSE (0001ms, 0988ms total)
T0D98 006:650 JLINK_IsHalted()  returns FALSE (0000ms, 0987ms total)
T0D98 006:752 JLINK_ReadMemU32(0xE0001004, 0x0001 Items, ...) -- CPU is running -- CPU_ReadMem(4 bytes @ 0xE0001004) - Data: CC C8 07 0B  returns 0x01 (0000ms, 0987ms total)
T1118 006:753 JLINK_ReadMem (0x40021000, 0x0024 Bytes, ...) -- CPU is running -- CPU_ReadMem(36 bytes @ 0x40021000) - Data: 83 5D 03 03 0A 04 1D 00 00 00 00 00 00 00 00 00 ...  returns 0x00 (0001ms, 0988ms total)
T1118 006:754 JLINK_ReadMem (0x40021024, 0x0004 Bytes, ...) -- CPU is running -- CPU_ReadMem(4 bytes @ 0x40021024) - Data: 00 00 00 1C  returns 0x00 (0001ms, 0989ms total)
T1118 006:756 JLINK_ReadMem (0x40005800, 0x0020 Bytes, ...) -- CPU is running -- CPU_ReadMem(32 bytes @ 0x40005800) - Data: 00 00 00 00 00 00 00 00 00 00 00 00 00 00 00 00 ...  returns 0x00 (0001ms, 0990ms total)
T1118 006:757 JLINK_ReadMem (0x40005820, 0x0004 Bytes, ...) -- CPU is running -- CPU_ReadMem(4 bytes @ 0x40005820) - Data: 00 00 00 00  returns 0x00 (0001ms, 0991ms total)
T1118 006:758 JLINK_ReadMem (0x40013800, 0x0018 Bytes, ...) -- CPU is running -- CPU_ReadMem(24 bytes @ 0x40013800) - Data: C0 00 00 00 00 00 00 00 71 02 00 00 0C 20 00 00 ...  returns 0x00 (0002ms, 0993ms total)
T1118 006:760 JLINK_ReadMem (0x40013818, 0x0004 Bytes, ...) -- CPU is running -- CPU_ReadMem(4 bytes @ 0x40013818) - Data: 00 00 00 00  returns 0x00 (0000ms, 0993ms total)
T0D98 006:761 JLINK_IsHalted()  returns FALSE (0000ms, 0993ms total)
T0D98 006:862 JLINK_IsHalted()  returns FALSE (0000ms, 0993ms total)
T0D98 006:963 JLINK_IsHalted()  returns FALSE (0000ms, 0993ms total)
T0D98 007:064 JLINK_IsHalted()  returns FALSE (0001ms, 0994ms total)
T0D98 007:166 JLINK_IsHalted()  returns FALSE (0001ms, 0994ms total)
T0D98 007:267 JLINK_ReadMemU32(0xE0001004, 0x0001 Items, ...) -- CPU is running -- CPU_ReadMem(4 bytes @ 0xE0001004) - Data: D0 14 3F 0D  returns 0x01 (0001ms, 0994ms total)
T1118 007:271 JLINK_ReadMem (0x40021000, 0x0024 Bytes, ...) -- CPU is running -- CPU_ReadMem(36 bytes @ 0x40021000) - Data: 83 5D 03 03 0A 04 1D 00 00 00 00 00 00 00 00 00 ...  returns 0x00 (0001ms, 0995ms total)
T1118 007:272 JLINK_ReadMem (0x40021024, 0x0004 Bytes, ...) -- CPU is running -- CPU_ReadMem(4 bytes @ 0x40021024) - Data: 00 00 00 1C  returns 0x00 (0001ms, 0996ms total)
T1118 007:274 JLINK_ReadMem (0x40005800, 0x0020 Bytes, ...) -- CPU is running -- CPU_ReadMem(32 bytes @ 0x40005800) - Data: 00 00 00 00 00 00 00 00 00 00 00 00 00 00 00 00 ...  returns 0x00 (0002ms, 0998ms total)
T1118 007:276 JLINK_ReadMem (0x40005820, 0x0004 Bytes, ...) -- CPU is running -- CPU_ReadMem(4 bytes @ 0x40005820) - Data: 00 00 00 00  returns 0x00 (0001ms, 0999ms total)
T1118 007:277 JLINK_ReadMem (0x40013800, 0x0018 Bytes, ...) -- CPU is running -- CPU_ReadMem(24 bytes @ 0x40013800) - Data: C0 00 00 00 00 00 00 00 71 02 00 00 0C 20 00 00 ...  returns 0x00 (0001ms, 1000ms total)
T1118 007:278 JLINK_ReadMem (0x40013818, 0x0004 Bytes, ...) -- CPU is running -- CPU_ReadMem(4 bytes @ 0x40013818) - Data: 00 00 00 00  returns 0x00 (0001ms, 1001ms total)
T0D98 007:280 JLINK_IsHalted()  returns FALSE (0001ms, 1002ms total)
T0D98 007:381 JLINK_IsHalted()  returns FALSE (0001ms, 1002ms total)
T0D98 007:482 JLINK_IsHalted()  returns FALSE (0001ms, 1002ms total)
T0D98 007:583 JLINK_IsHalted()  returns FALSE (0001ms, 1002ms total)
T1118 007:675 JLINK_ReadMem (0x08000100, 0x0002 Bytes, ...) -- Read from flash cache (2 bytes @ 0x08000100) - Data: 06 48  returns 0x00 (0000ms, 1001ms total)
T1118 007:675 JLINK_ReadMem (0x08000102, 0x0002 Bytes, ...) -- Read from flash cache (2 bytes @ 0x08000102) - Data: 80 47  returns 0x00 (0000ms, 1001ms total)
T1118 007:675 JLINK_ReadMem (0x08000104, 0x0002 Bytes, ...) -- Read from flash cache (2 bytes @ 0x08000104) - Data: 06 48  returns 0x00 (0000ms, 1001ms total)
T1118 007:675 JLINK_ReadMem (0x08000106, 0x0002 Bytes, ...) -- Read from flash cache (2 bytes @ 0x08000106) - Data: 00 47  returns 0x00 (0001ms, 1002ms total)
T1118 007:676 JLINK_ReadMem (0x08000108, 0x0002 Bytes, ...) -- Read from flash cache (2 bytes @ 0x08000108) - Data: FE E7  returns 0x00 (0000ms, 1002ms total)
T1118 007:676 JLINK_ReadMem (0x0800010A, 0x0002 Bytes, ...) -- Read from flash cache (2 bytes @ 0x0800010A) - Data: FE E7  returns 0x00 (0000ms, 1002ms total)
T1118 007:676 JLINK_ReadMem (0x0800010C, 0x0002 Bytes, ...) -- Read from flash cache (2 bytes @ 0x0800010C) - Data: FE E7  returns 0x00 (0000ms, 1002ms total)
T1118 007:676 JLINK_ReadMem (0x0800010E, 0x0002 Bytes, ...) -- Read from flash cache (2 bytes @ 0x0800010E) - Data: FE E7  returns 0x00 (0000ms, 1002ms total)
T1118 007:676 JLINK_ReadMem (0x08000110, 0x0002 Bytes, ...) -- Read from flash cache (2 bytes @ 0x08000110) - Data: FE E7  returns 0x00 (0000ms, 1002ms total)
T1118 007:676 JLINK_ReadMem (0x08000112, 0x0002 Bytes, ...) -- Read from flash cache (2 bytes @ 0x08000112) - Data: FE E7  returns 0x00 (0000ms, 1002ms total)
T1118 007:676 JLINK_ReadMem (0x08000114, 0x0002 Bytes, ...) -- Read from flash cache (2 bytes @ 0x08000114) - Data: FE E7  returns 0x00 (0000ms, 1002ms total)
T0D98 007:685 JLINK_IsHalted()  returns FALSE (0000ms, 1002ms total)
T0D98 007:786 JLINK_ReadMemU32(0xE0001004, 0x0001 Items, ...) -- CPU is running -- CPU_ReadMem(4 bytes @ 0xE0001004) - Data: CA 84 78 0F  returns 0x01 (0000ms, 1002ms total)
T1118 007:786 JLINK_ReadMem (0x40021000, 0x0024 Bytes, ...) -- CPU is running -- CPU_ReadMem(36 bytes @ 0x40021000) - Data: 83 5D 03 03 0A 04 1D 00 00 00 00 00 00 00 00 00 ...  returns 0x00 (0001ms, 1003ms total)
T1118 007:787 JLINK_ReadMem (0x40021024, 0x0004 Bytes, ...) -- CPU is running -- CPU_ReadMem(4 bytes @ 0x40021024) - Data: 00 00 00 1C  returns 0x00 (0001ms, 1004ms total)
T1118 007:789 JLINK_ReadMem (0x40005800, 0x0020 Bytes, ...) -- CPU is running -- CPU_ReadMem(32 bytes @ 0x40005800) - Data: 00 00 00 00 00 00 00 00 00 00 00 00 00 00 00 00 ...  returns 0x00 (0001ms, 1005ms total)
T1118 007:790 JLINK_ReadMem (0x40005820, 0x0004 Bytes, ...) -- CPU is running -- CPU_ReadMem(4 bytes @ 0x40005820) - Data: 00 00 00 00  returns 0x00 (0000ms, 1005ms total)
T1118 007:791 JLINK_ReadMem (0x40013800, 0x0018 Bytes, ...) -- CPU is running -- CPU_ReadMem(24 bytes @ 0x40013800) - Data: C0 00 00 00 00 00 00 00 71 02 00 00 0C 20 00 00 ...  returns 0x00 (0001ms, 1006ms total)
T1118 007:792 JLINK_ReadMem (0x40013818, 0x0004 Bytes, ...) -- CPU is running -- CPU_ReadMem(4 bytes @ 0x40013818) - Data: 00 00 00 00  returns 0x00 (0000ms, 1006ms total)
T0D98 007:793 JLINK_IsHalted()  returns FALSE (0000ms, 1006ms total)
T0D98 007:895 JLINK_IsHalted()  returns FALSE (0000ms, 1006ms total)
T0D98 007:996 JLINK_IsHalted()  returns FALSE (0000ms, 1006ms total)
T0D98 008:097 JLINK_IsHalted()  returns FALSE (0000ms, 1006ms total)
T0D98 008:199 JLINK_IsHalted()  returns FALSE (0000ms, 1006ms total)
T0D98 008:300 JLINK_ReadMemU32(0xE0001004, 0x0001 Items, ...) -- CPU is running -- CPU_ReadMem(4 bytes @ 0xE0001004) - Data: F9 C2 AD 11  returns 0x01 (0001ms, 1007ms total)
T1118 008:302 JLINK_ReadMem (0x40021000, 0x0024 Bytes, ...) -- CPU is running -- CPU_ReadMem(36 bytes @ 0x40021000) - Data: 83 5D 03 03 0A 04 1D 00 00 00 00 00 00 00 00 00 ...  returns 0x00 (0001ms, 1008ms total)
T1118 008:303 JLINK_ReadMem (0x40021024, 0x0004 Bytes, ...) -- CPU is running -- CPU_ReadMem(4 bytes @ 0x40021024) - Data: 00 00 00 1C  returns 0x00 (0001ms, 1009ms total)
T1118 008:305 JLINK_ReadMem (0x40005800, 0x0020 Bytes, ...) -- CPU is running -- CPU_ReadMem(32 bytes @ 0x40005800) - Data: 00 00 00 00 00 00 00 00 00 00 00 00 00 00 00 00 ...  returns 0x00 (0001ms, 1010ms total)
T1118 008:306 JLINK_ReadMem (0x40005820, 0x0004 Bytes, ...) -- CPU is running -- CPU_ReadMem(4 bytes @ 0x40005820) - Data: 00 00 00 00  returns 0x00 (0001ms, 1011ms total)
T1118 008:307 JLINK_ReadMem (0x40013800, 0x0018 Bytes, ...) -- CPU is running -- CPU_ReadMem(24 bytes @ 0x40013800) - Data: C0 00 00 00 00 00 00 00 71 02 00 00 0C 20 00 00 ...  returns 0x00 (0001ms, 1012ms total)
T1118 008:308 JLINK_ReadMem (0x40013818, 0x0004 Bytes, ...) -- CPU is running -- CPU_ReadMem(4 bytes @ 0x40013818) - Data: 00 00 00 00  returns 0x00 (0001ms, 1013ms total)
T0D98 008:310 JLINK_IsHalted()  returns FALSE (0001ms, 1014ms total)
T0D98 008:412 JLINK_IsHalted()  returns FALSE (0000ms, 1013ms total)
T0D98 008:513 JLINK_IsHalted()  returns FALSE (0000ms, 1013ms total)
T1118 008:571 JLINK_ReadMem (0x08002B1C, 0x0002 Bytes, ...) -- Read from flash cache (2 bytes @ 0x08002B1C) - Data: 81 69  returns 0x00 (0000ms, 1013ms total)
T1118 008:571 JLINK_ReadMem (0x08002B1E, 0x0002 Bytes, ...) -- Read from flash cache (2 bytes @ 0x08002B1E) - Data: 41 F0  returns 0x00 (0000ms, 1013ms total)
T1118 008:571 JLINK_ReadMem (0x08002B20, 0x0002 Bytes, ...) -- Read from flash cache (2 bytes @ 0x08002B20) - Data: 04 01  returns 0x00 (0000ms, 1013ms total)
T1118 008:571 JLINK_ReadMem (0x08002B22, 0x0002 Bytes, ...) -- Read from flash cache (2 bytes @ 0x08002B22) - Data: 81 61  returns 0x00 (0000ms, 1013ms total)
T1118 008:571 JLINK_ReadMem (0x08002B24, 0x0002 Bytes, ...) -- Read from flash cache (2 bytes @ 0x08002B24) - Data: 81 69  returns 0x00 (0000ms, 1013ms total)
T1118 008:571 JLINK_ReadMem (0x08002B26, 0x0002 Bytes, ...) -- Read from flash cache (2 bytes @ 0x08002B26) - Data: 01 F0  returns 0x00 (0000ms, 1013ms total)
T1118 008:571 JLINK_ReadMem (0x08002B28, 0x0002 Bytes, ...) -- Read from flash cache (2 bytes @ 0x08002B28) - Data: 04 01  returns 0x00 (0000ms, 1013ms total)
T0D98 008:614 JLINK_IsHalted()  returns FALSE (0000ms, 1013ms total)
T0D98 008:715 JLINK_IsHalted()  returns FALSE (0000ms, 1013ms total)
T0D98 008:816 JLINK_ReadMemU32(0xE0001004, 0x0001 Items, ...) -- CPU is running -- CPU_ReadMem(4 bytes @ 0xE0001004) - Data: F1 F0 E3 13  returns 0x01 (0001ms, 1014ms total)
T1118 008:817 JLINK_ReadMem (0x40021000, 0x0024 Bytes, ...) -- CPU is running -- CPU_ReadMem(36 bytes @ 0x40021000) - Data: 83 5D 03 03 0A 04 1D 00 00 00 00 00 00 00 00 00 ...  returns 0x00 (0001ms, 1015ms total)
T1118 008:818 JLINK_ReadMem (0x40021024, 0x0004 Bytes, ...) -- CPU is running -- CPU_ReadMem(4 bytes @ 0x40021024) - Data: 00 00 00 1C  returns 0x00 (0000ms, 1015ms total)
T1118 008:819 JLINK_ReadMem (0x40005800, 0x0020 Bytes, ...) -- CPU is running -- CPU_ReadMem(32 bytes @ 0x40005800) - Data: 00 00 00 00 00 00 00 00 00 00 00 00 00 00 00 00 ...  returns 0x00 (0001ms, 1016ms total)
T1118 008:820 JLINK_ReadMem (0x40005820, 0x0004 Bytes, ...) -- CPU is running -- CPU_ReadMem(4 bytes @ 0x40005820) - Data: 00 00 00 00  returns 0x00 (0000ms, 1016ms total)
T1118 008:821 JLINK_ReadMem (0x40013800, 0x0018 Bytes, ...) -- CPU is running -- CPU_ReadMem(24 bytes @ 0x40013800) - Data: C0 00 00 00 00 00 00 00 71 02 00 00 0C 20 00 00 ...  returns 0x00 (0001ms, 1017ms total)
T1118 008:822 JLINK_ReadMem (0x40013818, 0x0004 Bytes, ...) -- CPU is running -- CPU_ReadMem(4 bytes @ 0x40013818) - Data: 00 00 00 00  returns 0x00 (0000ms, 1017ms total)
T0D98 008:823 JLINK_IsHalted()  returns FALSE (0000ms, 1017ms total)
T0D98 008:924 JLINK_IsHalted()  returns FALSE (0000ms, 1017ms total)
T0D98 009:025 JLINK_IsHalted()  returns FALSE (0000ms, 1017ms total)
T0D98 009:127 JLINK_IsHalted()  returns FALSE (0000ms, 1017ms total)
T0D98 009:228 JLINK_IsHalted()  returns FALSE (0000ms, 1017ms total)
T0D98 009:329 JLINK_ReadMemU32(0xE0001004, 0x0001 Items, ...) -- CPU is running -- CPU_ReadMem(4 bytes @ 0xE0001004) - Data: 13 AF 18 16  returns 0x01 (0001ms, 1018ms total)
T1118 009:332 JLINK_ReadMem (0x40021000, 0x0024 Bytes, ...) -- CPU is running -- CPU_ReadMem(36 bytes @ 0x40021000) - Data: 83 5D 03 03 0A 04 1D 00 00 00 00 00 00 00 00 00 ...  returns 0x00 (0002ms, 1020ms total)
T1118 009:334 JLINK_ReadMem (0x40021024, 0x0004 Bytes, ...) -- CPU is running -- CPU_ReadMem(4 bytes @ 0x40021024) - Data: 00 00 00 1C  returns 0x00 (0000ms, 1020ms total)
T1118 009:334 JLINK_ReadMem (0x40005800, 0x0020 Bytes, ...) -- CPU is running -- CPU_ReadMem(32 bytes @ 0x40005800) - Data: 00 00 00 00 00 00 00 00 00 00 00 00 00 00 00 00 ...  returns 0x00 (0002ms, 1022ms total)
T1118 009:336 JLINK_ReadMem (0x40005820, 0x0004 Bytes, ...) -- CPU is running -- CPU_ReadMem(4 bytes @ 0x40005820) - Data: 00 00 00 00  returns 0x00 (0001ms, 1023ms total)
T1118 009:338 JLINK_ReadMem (0x40013800, 0x0018 Bytes, ...) -- CPU is running -- CPU_ReadMem(24 bytes @ 0x40013800) - Data: C0 00 00 00 00 00 00 00 71 02 00 00 0C 20 00 00 ...  returns 0x00 (0001ms, 1024ms total)
T1118 009:339 JLINK_ReadMem (0x40013818, 0x0004 Bytes, ...) -- CPU is running -- CPU_ReadMem(4 bytes @ 0x40013818) - Data: 00 00 00 00  returns 0x00 (0001ms, 1025ms total)
T0D98 009:340 JLINK_IsHalted()  returns FALSE (0001ms, 1026ms total)
T0D98 009:441 JLINK_IsHalted()  returns FALSE (0000ms, 1025ms total)
T0D98 009:542 JLINK_IsHalted()  returns FALSE (0000ms, 1025ms total)
T0D98 009:643 JLINK_IsHalted()  returns FALSE (0000ms, 1025ms total)
T0D98 009:744 JLINK_IsHalted()  returns FALSE (0000ms, 1025ms total)
T0D98 009:846 JLINK_ReadMemU32(0xE0001004, 0x0001 Items, ...) -- CPU is running -- CPU_ReadMem(4 bytes @ 0xE0001004) - Data: 71 C1 4F 18  returns 0x01 (0001ms, 1026ms total)
T1118 009:847 JLINK_ReadMem (0x40021000, 0x0024 Bytes, ...) -- CPU is running -- CPU_ReadMem(36 bytes @ 0x40021000) - Data: 83 5D 03 03 0A 04 1D 00 00 00 00 00 00 00 00 00 ...  returns 0x00 (0001ms, 1027ms total)
T1118 009:848 JLINK_ReadMem (0x40021024, 0x0004 Bytes, ...) -- CPU is running -- CPU_ReadMem(4 bytes @ 0x40021024) - Data: 00 00 00 1C  returns 0x00 (0001ms, 1028ms total)
T1118 009:849 JLINK_ReadMem (0x40005800, 0x0020 Bytes, ...) -- CPU is running -- CPU_ReadMem(32 bytes @ 0x40005800) - Data: 00 00 00 00 00 00 00 00 00 00 00 00 00 00 00 00 ...  returns 0x00 (0001ms, 1029ms total)
T1118 009:850 JLINK_ReadMem (0x40005820, 0x0004 Bytes, ...) -- CPU is running -- CPU_ReadMem(4 bytes @ 0x40005820) - Data: 00 00 00 00  returns 0x00 (0001ms, 1030ms total)
T1118 009:851 JLINK_ReadMem (0x40013800, 0x0018 Bytes, ...) -- CPU is running -- CPU_ReadMem(24 bytes @ 0x40013800) - Data: C0 00 00 00 00 00 00 00 71 02 00 00 0C 20 00 00 ...  returns 0x00 (0001ms, 1031ms total)
T1118 009:852 JLINK_ReadMem (0x40013818, 0x0004 Bytes, ...) -- CPU is running -- CPU_ReadMem(4 bytes @ 0x40013818) - Data: 00 00 00 00  returns 0x00 (0001ms, 1032ms total)
T0D98 009:854 JLINK_IsHalted()  returns FALSE (0000ms, 1032ms total)
T0D98 009:955 JLINK_IsHalted()  returns FALSE (0000ms, 1032ms total)
T0D98 010:056 JLINK_IsHalted()  returns FALSE (0001ms, 1033ms total)
T0D98 010:157 JLINK_IsHalted()  returns FALSE (0001ms, 1033ms total)
T0D98 010:259 JLINK_IsHalted()  returns FALSE (0000ms, 1032ms total)
T0D98 010:360 JLINK_ReadMemU32(0xE0001004, 0x0001 Items, ...) -- CPU is running -- CPU_ReadMem(4 bytes @ 0xE0001004) - Data: 8A 58 85 1A  returns 0x01 (0001ms, 1033ms total)
T1118 010:363 JLINK_ReadMem (0x40021000, 0x0024 Bytes, ...) -- CPU is running -- CPU_ReadMem(36 bytes @ 0x40021000) - Data: 83 5D 03 03 0A 04 1D 00 00 00 00 00 00 00 00 00 ...  returns 0x00 (0001ms, 1034ms total)
T1118 010:364 JLINK_ReadMem (0x40021024, 0x0004 Bytes, ...) -- CPU is running -- CPU_ReadMem(4 bytes @ 0x40021024) - Data: 00 00 00 1C  returns 0x00 (0001ms, 1035ms total)
T1118 010:367 JLINK_ReadMem (0x40005800, 0x0020 Bytes, ...) -- CPU is running -- CPU_ReadMem(32 bytes @ 0x40005800) - Data: 00 00 00 00 00 00 00 00 00 00 00 00 00 00 00 00 ...  returns 0x00 (0000ms, 1035ms total)
T1118 010:368 JLINK_ReadMem (0x40005820, 0x0004 Bytes, ...) -- CPU is running -- CPU_ReadMem(4 bytes @ 0x40005820) - Data: 00 00 00 00  returns 0x00 (0000ms, 1036ms total)
T1118 010:369 JLINK_ReadMem (0x40013800, 0x0018 Bytes, ...) -- CPU is running -- CPU_ReadMem(24 bytes @ 0x40013800) - Data: C0 00 00 00 00 00 00 00 71 02 00 00 0C 20 00 00 ...  returns 0x00 (0002ms, 1038ms total)
T1118 010:371 JLINK_ReadMem (0x40013818, 0x0004 Bytes, ...) -- CPU is running -- CPU_ReadMem(4 bytes @ 0x40013818) - Data: 00 00 00 00  returns 0x00 (0001ms, 1039ms total)
T0D98 010:373 JLINK_IsHalted()  returns FALSE (0000ms, 1039ms total)
T0D98 010:474 JLINK_IsHalted()  returns FALSE (0000ms, 1039ms total)
T0D98 010:575 JLINK_IsHalted()  returns FALSE (0001ms, 1040ms total)
T0D98 010:678 JLINK_IsHalted()  returns FALSE (0001ms, 1040ms total)
T0D98 010:779 JLINK_IsHalted()  returns FALSE (0000ms, 1039ms total)
T0D98 010:880 JLINK_ReadMemU32(0xE0001004, 0x0001 Items, ...) -- CPU is running -- CPU_ReadMem(4 bytes @ 0xE0001004) - Data: 51 30 C0 1C  returns 0x01 (0000ms, 1039ms total)
T1118 010:881 JLINK_ReadMem (0x40021000, 0x0024 Bytes, ...) -- CPU is running -- CPU_ReadMem(36 bytes @ 0x40021000) - Data: 83 5D 03 03 0A 04 1D 00 00 00 00 00 00 00 00 00 ...  returns 0x00 (0001ms, 1041ms total)
T1118 010:882 JLINK_ReadMem (0x40021024, 0x0004 Bytes, ...) -- CPU is running -- CPU_ReadMem(4 bytes @ 0x40021024) - Data: 00 00 00 1C  returns 0x00 (0001ms, 1042ms total)
T1118 010:883 JLINK_ReadMem (0x40005800, 0x0020 Bytes, ...) -- CPU is running -- CPU_ReadMem(32 bytes @ 0x40005800) - Data: 00 00 00 00 00 00 00 00 00 00 00 00 00 00 00 00 ...  returns 0x00 (0001ms, 1043ms total)
T1118 010:884 JLINK_ReadMem (0x40005820, 0x0004 Bytes, ...) -- CPU is running -- CPU_ReadMem(4 bytes @ 0x40005820) - Data: 00 00 00 00  returns 0x00 (0001ms, 1044ms total)
T1118 010:885 JLINK_ReadMem (0x40013800, 0x0018 Bytes, ...) -- CPU is running -- CPU_ReadMem(24 bytes @ 0x40013800) - Data: C0 00 00 00 00 00 00 00 71 02 00 00 0C 20 00 00 ...  returns 0x00 (0001ms, 1045ms total)
T1118 010:886 JLINK_ReadMem (0x40013818, 0x0004 Bytes, ...) -- CPU is running -- CPU_ReadMem(4 bytes @ 0x40013818) - Data: 00 00 00 00  returns 0x00 (0001ms, 1046ms total)
T0D98 010:887 JLINK_IsHalted()  returns FALSE (0001ms, 1047ms total)
T0D98 010:989 JLINK_IsHalted()  returns FALSE (0000ms, 1046ms total)
T0D98 011:091 JLINK_IsHalted()  returns FALSE (0000ms, 1046ms total)
T0D98 011:192 JLINK_IsHalted()  returns FALSE (0001ms, 1047ms total)
T0D98 011:294 JLINK_IsHalted()  returns FALSE (0001ms, 1047ms total)
T0D98 011:395 JLINK_ReadMemU32(0xE0001004, 0x0001 Items, ...) -- CPU is running -- CPU_ReadMem(4 bytes @ 0xE0001004) - Data: 34 CE F5 1E  returns 0x01 (0000ms, 1046ms total)
T1118 011:396 JLINK_ReadMem (0x40021000, 0x0024 Bytes, ...) -- CPU is running -- CPU_ReadMem(36 bytes @ 0x40021000) - Data: 83 5D 03 03 0A 04 1D 00 00 00 00 00 00 00 00 00 ...  returns 0x00 (0001ms, 1047ms total)
T1118 011:397 JLINK_ReadMem (0x40021024, 0x0004 Bytes, ...) -- CPU is running -- CPU_ReadMem(4 bytes @ 0x40021024) - Data: 00 00 00 1C  returns 0x00 (0000ms, 1047ms total)
T1118 011:398 JLINK_ReadMem (0x40005800, 0x0020 Bytes, ...) -- CPU is running -- CPU_ReadMem(32 bytes @ 0x40005800) - Data: 00 00 00 00 00 00 00 00 00 00 00 00 00 00 00 00 ...  returns 0x00 (0001ms, 1048ms total)
T1118 011:399 JLINK_ReadMem (0x40005820, 0x0004 Bytes, ...) -- CPU is running -- CPU_ReadMem(4 bytes @ 0x40005820) - Data: 00 00 00 00  returns 0x00 (0000ms, 1048ms total)
T1118 011:400 JLINK_ReadMem (0x40013800, 0x0018 Bytes, ...) -- CPU is running -- CPU_ReadMem(24 bytes @ 0x40013800) - Data: C0 00 00 00 00 00 00 00 71 02 00 00 0C 20 00 00 ...  returns 0x00 (0001ms, 1049ms total)
T1118 011:401 JLINK_ReadMem (0x40013818, 0x0004 Bytes, ...) -- CPU is running -- CPU_ReadMem(4 bytes @ 0x40013818) - Data: 00 00 00 00  returns 0x00 (0001ms, 1050ms total)
T0D98 011:402 JLINK_IsHalted()  returns FALSE (0000ms, 1050ms total)
T0D98 011:503 JLINK_IsHalted()  returns FALSE (0000ms, 1050ms total)
T0D98 011:604 JLINK_IsHalted()  returns FALSE (0001ms, 1051ms total)
T0D98 011:705 JLINK_IsHalted()  returns FALSE (0000ms, 1050ms total)
T0D98 011:806 JLINK_IsHalted()  returns FALSE (0000ms, 1050ms total)
T0D98 011:907 JLINK_ReadMemU32(0xE0001004, 0x0001 Items, ...) -- CPU is running -- CPU_ReadMem(4 bytes @ 0xE0001004) - Data: 2E 24 28 21  returns 0x01 (0000ms, 1050ms total)
T1118 011:909 JLINK_ReadMem (0x40021000, 0x0024 Bytes, ...) -- CPU is running -- CPU_ReadMem(36 bytes @ 0x40021000) - Data: 83 5D 03 03 0A 04 1D 00 00 00 00 00 00 00 00 00 ...  returns 0x00 (0001ms, 1051ms total)
T1118 011:911 JLINK_ReadMem (0x40021024, 0x0004 Bytes, ...) -- CPU is running -- CPU_ReadMem(4 bytes @ 0x40021024) - Data: 00 00 00 1C  returns 0x00 (0000ms, 1051ms total)
T1118 011:913 JLINK_ReadMem (0x40005800, 0x0020 Bytes, ...) -- CPU is running -- CPU_ReadMem(32 bytes @ 0x40005800) - Data: 00 00 00 00 00 00 00 00 00 00 00 00 00 00 00 00 ...  returns 0x00 (0001ms, 1052ms total)
T1118 011:914 JLINK_ReadMem (0x40005820, 0x0004 Bytes, ...) -- CPU is running -- CPU_ReadMem(4 bytes @ 0x40005820) - Data: 00 00 00 00  returns 0x00 (0001ms, 1053ms total)
T1118 011:916 JLINK_ReadMem (0x40013800, 0x0018 Bytes, ...) -- CPU is running -- CPU_ReadMem(24 bytes @ 0x40013800) - Data: C0 00 00 00 00 00 00 00 71 02 00 00 0C 20 00 00 ...  returns 0x00 (0001ms, 1054ms total)
T1118 011:917 JLINK_ReadMem (0x40013818, 0x0004 Bytes, ...) -- CPU is running -- CPU_ReadMem(4 bytes @ 0x40013818) - Data: 00 00 00 00  returns 0x00 (0001ms, 1055ms total)
T0D98 011:919 JLINK_IsHalted()  returns FALSE (0001ms, 1056ms total)
T0D98 012:021 JLINK_IsHalted()  returns FALSE (0000ms, 1055ms total)
T0D98 012:122 JLINK_IsHalted()  returns FALSE (0000ms, 1055ms total)
T0D98 012:223 JLINK_IsHalted()  returns FALSE (0000ms, 1055ms total)
T0D98 012:325 JLINK_IsHalted()  returns FALSE (0000ms, 1055ms total)
T0D98 012:427 JLINK_ReadMemU32(0xE0001004, 0x0001 Items, ...) -- CPU is running -- CPU_ReadMem(4 bytes @ 0xE0001004) - Data: 42 A5 63 23  returns 0x01 (0000ms, 1055ms total)
T1118 012:427 JLINK_ReadMem (0x40021000, 0x0024 Bytes, ...) -- CPU is running -- CPU_ReadMem(36 bytes @ 0x40021000) - Data: 83 5D 03 03 0A 04 1D 00 00 00 00 00 00 00 00 00 ...  returns 0x00 (0002ms, 1057ms total)
T1118 012:429 JLINK_ReadMem (0x40021024, 0x0004 Bytes, ...) -- CPU is running -- CPU_ReadMem(4 bytes @ 0x40021024) - Data: 00 00 00 1C  returns 0x00 (0001ms, 1058ms total)
T1118 012:431 JLINK_ReadMem (0x40005800, 0x0020 Bytes, ...) -- CPU is running -- CPU_ReadMem(32 bytes @ 0x40005800) - Data: 00 00 00 00 00 00 00 00 00 00 00 00 00 00 00 00 ...  returns 0x00 (0001ms, 1059ms total)
T1118 012:432 JLINK_ReadMem (0x40005820, 0x0004 Bytes, ...) -- CPU is running -- CPU_ReadMem(4 bytes @ 0x40005820) - Data: 00 00 00 00  returns 0x00 (0001ms, 1060ms total)
T1118 012:433 JLINK_ReadMem (0x40013800, 0x0018 Bytes, ...) -- CPU is running -- CPU_ReadMem(24 bytes @ 0x40013800) - Data: C0 00 00 00 00 00 00 00 71 02 00 00 0C 20 00 00 ...  returns 0x00 (0001ms, 1061ms total)
T1118 012:434 JLINK_ReadMem (0x40013818, 0x0004 Bytes, ...) -- CPU is running -- CPU_ReadMem(4 bytes @ 0x40013818) - Data: 00 00 00 00  returns 0x00 (0000ms, 1061ms total)
T0D98 012:435 JLINK_IsHalted()  returns FALSE (0000ms, 1061ms total)
T0D98 012:536 JLINK_IsHalted()  returns FALSE (0001ms, 1062ms total)
T0D98 012:638 JLINK_IsHalted()  returns FALSE (0000ms, 1061ms total)
T0D98 012:739 JLINK_IsHalted()  returns FALSE (0000ms, 1061ms total)
T0D98 012:840 JLINK_IsHalted()  returns FALSE (0001ms, 1062ms total)
T0D98 012:942 JLINK_ReadMemU32(0xE0001004, 0x0001 Items, ...) -- CPU is running -- CPU_ReadMem(4 bytes @ 0xE0001004) - Data: 1E AF 99 25  returns 0x01 (0000ms, 1061ms total)
